
T44C0 000:063 SEGGER J-Link V6.46g Log File (0001ms, 0051ms total)
T44C0 000:063 DLL Compiled: Jun 14 2019 19:33:33 (0001ms, 0051ms total)
T44C0 000:063 Logging started @ 2019-06-19 11:55 (0001ms, 0051ms total)
T44C0 000:064 JLINK_SetWarnOutHandler(...) (0000ms, 0051ms total)
T44C0 000:064 JLINK_OpenEx(...)
Firmware: J-Link ARM V8 compiled Nov 28 2014 13:44:46
Hardware: V8.00
Feature(s): RDI,FlashDL,FlashBP,JFlash,GDBFULL
TELNET listener socket opened on port 19021WEBSRV 
Starting webserver (0032ms, 0083ms total)
T44C0 000:064 WEBSRV Webserver running on local port 19080 (0032ms, 0083ms total)
T44C0 000:064   returns O.K. (0032ms, 0083ms total)
T44C0 000:096 JLINK_SetErrorOutHandler(...) (0000ms, 0083ms total)
T44C0 000:096 JLINK_ExecCommand("ProjectFile = "C:\Users\wn\Desktop\nRF5_SDK_15.3.0_59ac345\nRF5_SDK_15.3.0_59ac345\examples\ble_central\ble_app_multilink_central\pca10056\s140\arm5_no_packs\JLinkSettings.ini"", ...). Ref file found at: C:\Keil_v5\ARM\Segger\JLinkDevices.ref (0004ms, 0087ms total)
T44C0 000:096 XML referenced by ref file: C:\Program Files (x86)\SEGGER\JLink\JLinkDevices.xml (0005ms, 0088ms total)
T44C0 000:096 C:\Program Files (x86)\SEGGER\JLink\JLinkDevices.xml evaluated successfully.  returns 0x00 (0172ms, 0255ms total)
T44C0 000:271 JLINK_ExecCommand("Device = nRF52840_xxAA", ...). Device "NRF52840_XXAA" selected.  returns 0x00 (0007ms, 0262ms total)
T44C0 000:278 JLINK_ExecCommand("DisableConnectionTimeout", ...).   returns 0x01 (0000ms, 0262ms total)
T44C0 000:278 JLINK_GetHardwareVersion()  returns 0x13880 (0000ms, 0262ms total)
T44C0 000:278 JLINK_GetDLLVersion()  returns 64607 (0000ms, 0262ms total)
T44C0 000:278 JLINK_GetFirmwareString(...) (0000ms, 0262ms total)
T44C0 000:286 JLINK_GetDLLVersion()  returns 64607 (0000ms, 0262ms total)
T44C0 000:286 JLINK_GetCompileDateTime() (0000ms, 0262ms total)
T44C0 000:290 JLINK_GetFirmwareString(...) (0000ms, 0262ms total)
T44C0 000:292 JLINK_GetHardwareVersion()  returns 0x13880 (0000ms, 0262ms total)
T44C0 000:302 JLINK_TIF_Select(JLINKARM_TIF_SWD)  returns 0x00 (0001ms, 0263ms total)
T44C0 000:303 JLINK_SetSpeed(5000) (0000ms, 0263ms total)
T44C0 000:303 JLINK_GetId() >0x10B TIF>Found SW-DP with ID 0x2BA01477 >0x0D TIF> >0x28 TIF> >0x0D TIF> >0x28 TIF> >0x0D TIF> >0x28 TIF> >0x0D TIF> >0x28 TIF> >0x0D TIF> >0x28 TIF> >0x0D TIF> >0x28 TIF> >0x35 TIF> >0x35 TIF> >0x0D TIF> >0x28 TIF> >0x35 TIF> >0x35 TIF> >0x10B TIF>Found SW-DP with ID 0x2BA01477 >0x0D TIF> >0x28 TIF> >0x0D TIF> >0x28 TIF> >0x0D TIF> >0x28 TIF> >0x0D TIF> >0x28 TIF> >0x35 TIF> >0x0D TIF> >0x28 TIF>Scanning AP map to find all available APs >0x0D TIF> >0x28 TIF> >0x35 TIF>
 >0x35 TIF> >0x0D TIF> >0x28 TIF> >0x35 TIF> >0x35 TIF> >0x0D TIF> >0x28 TIF> >0x35 TIF> >0x35 TIF>AP[2]: Stopped AP scan as end of AP map has been reachedAP[0]: AHB-AP (IDR: 0x24770011)AP[1]: JTAG-AP (IDR: 0x02880000)Iterating through AP map to find AHB-AP to use >0x42 TIF> >0x28 TIF> >0x0D TIF> >0x28 TIF> >0x35 TIF> >0x35 TIF> >0x42 TIF> >0x28 TIF> >0x0D TIF> >0x28 TIF> >0x0D TIF> >0x28 TIF> >0x35 TIF> >0x35 TIF>AP[0]: Core foundAP[0]: AHB-AP ROM base: 0xE00FF000 >0x0D TIF> >0x28 TIF> >0x0D TIF>
 >0x28 TIF> >0x0D TIF> >0x28 TIF> >0x35 TIF> >0x35 TIF>CPUID register: 0x410FC241. Implementer code: 0x41 (ARM)Found Cortex-M4 r0p1, Little endian. -- Max. mem block: 0x00002408 -- CPU_ReadMem(4 bytes @ 0xE000EDF0) -- CPU_WriteMem(4 bytes @ 0xE000EDF0) -- CPU_ReadMem(4 bytes @ 0xE0002000)FPUnit: 6 code (BP) slots and 2 literal slots -- CPU_ReadMem(4 bytes @ 0xE000EDFC) -- CPU_WriteMem(4 bytes @ 0xE000EDFC) -- CPU_ReadMem(4 bytes @ 0xE0001000) -- CPU_WriteMem(4 bytes @ 0xE0001000)
 -- CPU_ReadMem(4 bytes @ 0xE000ED88) -- CPU_WriteMem(4 bytes @ 0xE000ED88) -- CPU_ReadMem(4 bytes @ 0xE000ED88) -- CPU_WriteMem(4 bytes @ 0xE000ED88)CoreSight components:ROMTbl[0] @ E00FF000 -- CPU_ReadMem(16 bytes @ 0xE00FF000) -- CPU_ReadMem(16 bytes @ 0xE000EFF0) -- CPU_ReadMem(16 bytes @ 0xE000EFE0)ROMTbl[0][0]: E000E000, CID: B105E00D, PID: 000BB00C SCS-M7 -- CPU_ReadMem(16 bytes @ 0xE0001FF0) -- CPU_ReadMem(16 bytes @ 0xE0001FE0)ROMTbl[0][1]: E0001000, CID: B105E00D, PID: 003BB002 DWT
 -- CPU_ReadMem(16 bytes @ 0xE0002FF0) -- CPU_ReadMem(16 bytes @ 0xE0002FE0)ROMTbl[0][2]: E0002000, CID: B105E00D, PID: 002BB003 FPB -- CPU_ReadMem(16 bytes @ 0xE0000FF0) -- CPU_ReadMem(16 bytes @ 0xE0000FE0)ROMTbl[0][3]: E0000000, CID: B105E00D, PID: 003BB001 ITM -- CPU_ReadMem(16 bytes @ 0xE00FF010) -- CPU_ReadMem(16 bytes @ 0xE0040FF0) -- CPU_ReadMem(16 bytes @ 0xE0040FE0)ROMTbl[0][4]: E0040000, CID: B105900D, PID: 000BB9A1 TPIU -- CPU_ReadMem(16 bytes @ 0xE0041FF0)
 -- CPU_ReadMem(16 bytes @ 0xE0041FE0)ROMTbl[0][5]: E0041000, CID: B105900D, PID: 000BB925 ETM >0x35 TIF>  returns 0x2BA01477 (0186ms, 0449ms total)
T44C0 000:489 JLINK_GetDLLVersion()  returns 64607 (0001ms, 0450ms total)
T44C0 000:490 JLINK_CORE_GetFound()  returns 0xE0000FF (0000ms, 0450ms total)
T44C0 000:490 JLINK_GetDebugInfo(0x100 = JLINKARM_ROM_TABLE_ADDR_INDEX) -- Value=0xE00FF000  returns 0x00 (0000ms, 0450ms total)
T44C0 000:492 JLINK_GetDebugInfo(0x100 = JLINKARM_ROM_TABLE_ADDR_INDEX) -- Value=0xE00FF000  returns 0x00 (0000ms, 0450ms total)
T44C0 000:492 JLINK_GetDebugInfo(0x101 = JLINKARM_DEBUG_INFO_ETM_ADDR_INDEX) -- Value=0xE0041000  returns 0x00 (0000ms, 0450ms total)
T44C0 000:492 JLINK_GetDebugInfo(0x102 = JLINKARM_DEBUG_INFO_MTB_ADDR_INDEX) -- Value=0x00000000  returns 0x00 (0000ms, 0450ms total)
T44C0 000:492 JLINK_GetDebugInfo(0x103 = JLINKARM_DEBUG_INFO_TPIU_ADDR_INDEX) -- Value=0xE0040000  returns 0x00 (0000ms, 0450ms total)
T44C0 000:492 JLINK_GetDebugInfo(0x104 = JLINKARM_DEBUG_INFO_ITM_ADDR_INDEX) -- Value=0xE0000000  returns 0x00 (0000ms, 0450ms total)
T44C0 000:492 JLINK_GetDebugInfo(0x105 = JLINKARM_DEBUG_INFO_DWT_ADDR_INDEX) -- Value=0xE0001000  returns 0x00 (0000ms, 0450ms total)
T44C0 000:492 JLINK_GetDebugInfo(0x106 = JLINKARM_DEBUG_INFO_FPB_ADDR_INDEX) -- Value=0xE0002000  returns 0x00 (0000ms, 0450ms total)
T44C0 000:492 JLINK_GetDebugInfo(0x107 = JLINKARM_DEBUG_INFO_NVIC_ADDR_INDEX) -- Value=0xE000E000  returns 0x00 (0000ms, 0450ms total)
T44C0 000:492 JLINK_GetDebugInfo(0x10C = JLINKARM_DEBUG_INFO_DBG_ADDR_INDEX) -- Value=0xE000EDF0  returns 0x00 (0000ms, 0450ms total)
T44C0 000:492 JLINK_ReadMemU32(0xE000EF40, 0x0001 Items, ...) -- CPU_ReadMem(4 bytes @ 0xE000EF40) - Data: 21 00 11 10  returns 1 (0001ms, 0451ms total)
T44C0 000:493 JLINK_ReadMemU32(0xE000EF44, 0x0001 Items, ...) -- CPU_ReadMem(4 bytes @ 0xE000EF44) - Data: 11 00 00 11  returns 1 (0000ms, 0451ms total)
T44C0 000:493 JLINK_ReadMemU32(0xE000ED00, 0x0001 Items, ...) -- CPU_ReadMem(4 bytes @ 0xE000ED00) - Data: 41 C2 0F 41  returns 1 (0001ms, 0452ms total)
T44C0 000:494 JLINK_SetResetType(JLINKARM_CM3_RESET_TYPE_NORMAL)  returns JLINKARM_CM3_RESET_TYPE_NORMAL (0000ms, 0452ms total)
T44C0 000:494 JLINK_Reset() -- CPU is running -- CPU_WriteMem(4 bytes @ 0xE000EDF0) -- CPU is running -- CPU_WriteMem(4 bytes @ 0xE000EDFC)Reset: Halt core after reset via DEMCR.VC_CORERESET. >0x35 TIF>Reset: Reset device via AIRCR.SYSRESETREQ. -- CPU is running -- CPU_WriteMem(4 bytes @ 0xE000ED0C) >0x0D TIF> >0x28 TIF> -- CPU_ReadMem(4 bytes @ 0xE000EDF0) -- CPU_ReadMem(4 bytes @ 0xE000EDF0) -- CPU is running -- CPU_WriteMem(4 bytes @ 0xE000EDF0) -- CPU is running -- CPU_WriteMem(4 bytes @ 0xE000EDFC)
 -- CPU_ReadMem(4 bytes @ 0xE000EDF0) -- CPU_WriteMem(4 bytes @ 0xE0002000) -- CPU_ReadMem(4 bytes @ 0xE000EDFC) -- CPU_ReadMem(4 bytes @ 0xE0001000) (0071ms, 0523ms total)
T44C0 000:565 JLINK_Halt()  returns 0x00 (0000ms, 0523ms total)
T44C0 000:565 JLINK_IsHalted()  returns TRUE (0000ms, 0523ms total)
T44C0 000:565 JLINK_ReadMemU32(0xE000EDF0, 0x0001 Items, ...) -- CPU_ReadMem(4 bytes @ 0xE000EDF0) - Data: 03 00 03 00  returns 1 (0000ms, 0523ms total)
T44C0 000:565 JLINK_WriteU32(0xE000EDF0, 0xA05F0003) -- CPU_WriteMem(4 bytes @ 0xE000EDF0)  returns 0 (0001ms, 0524ms total)
T44C0 000:566 JLINK_WriteU32(0xE000EDFC, 0x01000000) -- CPU_WriteMem(4 bytes @ 0xE000EDFC)  returns 0 (0000ms, 0524ms total)
T44C0 000:580 JLINK_GetHWStatus(...)  returns 0x00 (0000ms, 0524ms total)
T44C0 000:587 JLINK_GetNumBPUnits(Type = 0xFFFFFF00)  returns 0x06 (0000ms, 0524ms total)
T44C0 000:587 JLINK_GetNumBPUnits(Type = 0xF0)  returns 0x2000 (0000ms, 0524ms total)
T44C0 000:588 JLINK_GetNumWPUnits()  returns 0x04 (0000ms, 0524ms total)
T44C0 000:597 JLINK_GetSpeed()  returns 0xFA0 (0000ms, 0524ms total)
T44C0 000:603 JLINK_ReadMemU32(0xE000E004, 0x0001 Items, ...) -- CPU_ReadMem(4 bytes @ 0xE000E004) - Data: 01 00 00 00  returns 1 (0001ms, 0525ms total)
T44C0 000:604 JLINK_ReadMemU32(0xE000E004, 0x0001 Items, ...) -- CPU_ReadMem(4 bytes @ 0xE000E004) - Data: 01 00 00 00  returns 1 (0000ms, 0525ms total)
T44C0 000:604 JLINK_WriteMem(0xE0001000, 0x001C Bytes, ...) - Data: 01 00 00 00 00 00 00 00 00 00 00 00 00 00 00 00 ... -- CPU_WriteMem(28 bytes @ 0xE0001000)  returns 0x1C (0001ms, 0526ms total)
T44C0 000:605 JLINK_ReadMem (0xE0001000, 0x001C Bytes, ...) -- CPU_ReadMem(28 bytes @ 0xE0001000) - Data: 01 00 00 40 00 00 00 00 00 00 00 00 00 00 00 00 ...  returns 0x00 (0001ms, 0527ms total)
T44C0 000:606 JLINK_Halt()  returns 0x00 (0000ms, 0527ms total)
T44C0 000:606 JLINK_IsHalted()  returns TRUE (0000ms, 0527ms total)
T44C0 000:609 JLINK_WriteMem(0x20000000, 0x06E4 Bytes, ...) - Data: 00 BE 0A E0 0D 78 2D 06 68 40 08 24 40 00 00 D3 ... -- CPU_WriteMem(1764 bytes @ 0x20000000)  returns 0x6E4 (0011ms, 0538ms total)
T44C0 000:620 JLINK_WriteReg(R0, 0x00000000)  returns 0x00 (0000ms, 0538ms total)
T44C0 000:620 JLINK_WriteReg(R1, 0x03D09000)  returns 0x00 (0000ms, 0538ms total)
T44C0 000:620 JLINK_WriteReg(R2, 0x00000001)  returns 0x00 (0000ms, 0538ms total)
T44C0 000:620 JLINK_WriteReg(R3, 0x00000000)  returns 0x00 (0000ms, 0538ms total)
T44C0 000:620 JLINK_WriteReg(R4, 0x00000000)  returns 0x00 (0000ms, 0538ms total)
T44C0 000:620 JLINK_WriteReg(R5, 0x00000000)  returns 0x00 (0000ms, 0538ms total)
T44C0 000:620 JLINK_WriteReg(R6, 0x00000000)  returns 0x00 (0000ms, 0538ms total)
T44C0 000:620 JLINK_WriteReg(R7, 0x00000000)  returns 0x00 (0000ms, 0538ms total)
T44C0 000:620 JLINK_WriteReg(R8, 0x00000000)  returns 0x00 (0000ms, 0538ms total)
T44C0 000:620 JLINK_WriteReg(R9, 0x200006E0)  returns 0x00 (0000ms, 0538ms total)
T44C0 000:620 JLINK_WriteReg(R10, 0x00000000)  returns 0x00 (0000ms, 0538ms total)
T44C0 000:620 JLINK_WriteReg(R11, 0x00000000)  returns 0x00 (0000ms, 0538ms total)
T44C0 000:620 JLINK_WriteReg(R12, 0x00000000)  returns 0x00 (0000ms, 0538ms total)
T44C0 000:620 JLINK_WriteReg(R13 (SP), 0x20002000)  returns 0x00 (0000ms, 0538ms total)
T44C0 000:620 JLINK_WriteReg(R14, 0x20000001)  returns 0x00 (0000ms, 0538ms total)
T44C0 000:620 JLINK_WriteReg(R15 (PC), 0x20000020)  returns 0x00 (0000ms, 0538ms total)
T44C0 000:620 JLINK_WriteReg(XPSR, 0x01000000)  returns 0x00 (0000ms, 0538ms total)
T44C0 000:620 JLINK_WriteReg(MSP, 0x20002000)  returns 0x00 (0000ms, 0538ms total)
T44C0 000:620 JLINK_WriteReg(PSP, 0x20002000)  returns 0x00 (0000ms, 0538ms total)
T44C0 000:620 JLINK_WriteReg(CFBP, 0x00000000)  returns 0x00 (0000ms, 0538ms total)
T44C0 000:620 JLINK_SetBPEx(Addr = 0x20000000, Type = 0xFFFFFFF2) -- CPU_ReadMem(2 bytes @ 0x20000000)  returns 0x00000001 (0002ms, 0540ms total)
T44C0 000:622 JLINK_Go() -- CPU_WriteMem(2 bytes @ 0x20000000) -- CPU_ReadMem(4 bytes @ 0xE0001000) -- CPU_WriteMem(4 bytes @ 0xE0002008) -- CPU_WriteMem(4 bytes @ 0xE000200C) -- CPU_WriteMem(4 bytes @ 0xE0002010) -- CPU_WriteMem(4 bytes @ 0xE0002014) -- CPU_WriteMem(4 bytes @ 0xE0002018) -- CPU_WriteMem(4 bytes @ 0xE000201C) -- CPU_WriteMem(4 bytes @ 0xE0001004) (0005ms, 0545ms total)
T44C0 000:627 JLINK_IsHalted() -- CPU_ReadMem(2 bytes @ 0x20000000)  returns TRUE (0003ms, 0548ms total)
T44C0 000:630 JLINK_ReadReg(R15 (PC))  returns 0x20000000 (0000ms, 0545ms total)
T44C0 000:630 JLINK_ClrBPEx(BPHandle = 0x00000001)  returns 0x00 (0000ms, 0545ms total)
T44C0 000:630 JLINK_ReadReg(R0)  returns 0x00000000 (0000ms, 0545ms total)
T44C0 000:630 JLINK_WriteReg(R0, 0x00026000)  returns 0x00 (0000ms, 0545ms total)
T44C0 000:630 JLINK_WriteReg(R1, 0x00001000)  returns 0x00 (0000ms, 0545ms total)
T44C0 000:630 JLINK_WriteReg(R2, 0x000000FF)  returns 0x00 (0000ms, 0545ms total)
T44C0 000:630 JLINK_WriteReg(R3, 0x00000000)  returns 0x00 (0000ms, 0545ms total)
T44C0 000:630 JLINK_WriteReg(R4, 0x00000000)  returns 0x00 (0000ms, 0545ms total)
T44C0 000:630 JLINK_WriteReg(R5, 0x00000000)  returns 0x00 (0000ms, 0545ms total)
T44C0 000:630 JLINK_WriteReg(R6, 0x00000000)  returns 0x00 (0000ms, 0545ms total)
T44C0 000:630 JLINK_WriteReg(R7, 0x00000000)  returns 0x00 (0000ms, 0545ms total)
T44C0 000:630 JLINK_WriteReg(R8, 0x00000000)  returns 0x00 (0000ms, 0545ms total)
T44C0 000:630 JLINK_WriteReg(R9, 0x200006E0)  returns 0x00 (0000ms, 0545ms total)
T44C0 000:630 JLINK_WriteReg(R10, 0x00000000)  returns 0x00 (0000ms, 0545ms total)
T44C0 000:630 JLINK_WriteReg(R11, 0x00000000)  returns 0x00 (0000ms, 0545ms total)
T44C0 000:630 JLINK_WriteReg(R12, 0x00000000)  returns 0x00 (0000ms, 0545ms total)
T44C0 000:630 JLINK_WriteReg(R13 (SP), 0x20002000)  returns 0x00 (0000ms, 0545ms total)
T44C0 000:630 JLINK_WriteReg(R14, 0x20000001)  returns 0x00 (0000ms, 0545ms total)
T44C0 000:631 JLINK_WriteReg(R15 (PC), 0x20000344)  returns 0x00 (0000ms, 0545ms total)
T44C0 000:631 JLINK_WriteReg(XPSR, 0x01000000)  returns 0x00 (0000ms, 0545ms total)
T44C0 000:631 JLINK_WriteReg(MSP, 0x20002000)  returns 0x00 (0000ms, 0545ms total)
T44C0 000:631 JLINK_WriteReg(PSP, 0x20002000)  returns 0x00 (0000ms, 0545ms total)
T44C0 000:631 JLINK_WriteReg(CFBP, 0x00000000)  returns 0x00 (0000ms, 0545ms total)
T44C0 000:631 JLINK_SetBPEx(Addr = 0x20000000, Type = 0xFFFFFFF2)  returns 0x00000002 (0000ms, 0545ms total)
T44C0 000:631 JLINK_Go() -- CPU_ReadMem(4 bytes @ 0xE0001000) (0004ms, 0549ms total)
T44C0 000:635 JLINK_IsHalted() -- CPU_ReadMem(2 bytes @ 0x20000000)  returns TRUE (0002ms, 0551ms total)
T44C0 000:637 JLINK_ReadReg(R15 (PC))  returns 0x20000000 (0000ms, 0549ms total)
T44C0 000:637 JLINK_ClrBPEx(BPHandle = 0x00000002)  returns 0x00 (0000ms, 0549ms total)
T44C0 000:637 JLINK_ReadReg(R0)  returns 0x00000001 (0000ms, 0549ms total)
T44C0 000:637 JLINK_WriteReg(R0, 0x00026000)  returns 0x00 (0000ms, 0549ms total)
T44C0 000:637 JLINK_WriteReg(R1, 0x00001000)  returns 0x00 (0000ms, 0549ms total)
T44C0 000:637 JLINK_WriteReg(R2, 0x000000FF)  returns 0x00 (0000ms, 0549ms total)
T44C0 000:637 JLINK_WriteReg(R3, 0x00000000)  returns 0x00 (0000ms, 0549ms total)
T44C0 000:637 JLINK_WriteReg(R4, 0x00000000)  returns 0x00 (0000ms, 0549ms total)
T44C0 000:637 JLINK_WriteReg(R5, 0x00000000)  returns 0x00 (0000ms, 0549ms total)
T44C0 000:637 JLINK_WriteReg(R6, 0x00000000)  returns 0x00 (0000ms, 0549ms total)
T44C0 000:637 JLINK_WriteReg(R7, 0x00000000)  returns 0x00 (0000ms, 0549ms total)
T44C0 000:637 JLINK_WriteReg(R8, 0x00000000)  returns 0x00 (0000ms, 0549ms total)
T44C0 000:637 JLINK_WriteReg(R9, 0x200006E0)  returns 0x00 (0000ms, 0549ms total)
T44C0 000:637 JLINK_WriteReg(R10, 0x00000000)  returns 0x00 (0000ms, 0549ms total)
T44C0 000:637 JLINK_WriteReg(R11, 0x00000000)  returns 0x00 (0000ms, 0549ms total)
T44C0 000:637 JLINK_WriteReg(R12, 0x00000000)  returns 0x00 (0000ms, 0549ms total)
T44C0 000:637 JLINK_WriteReg(R13 (SP), 0x20002000)  returns 0x00 (0000ms, 0549ms total)
T44C0 000:637 JLINK_WriteReg(R14, 0x20000001)  returns 0x00 (0000ms, 0549ms total)
T44C0 000:637 JLINK_WriteReg(R15 (PC), 0x20000188)  returns 0x00 (0000ms, 0549ms total)
T44C0 000:637 JLINK_WriteReg(XPSR, 0x01000000)  returns 0x00 (0000ms, 0549ms total)
T44C0 000:637 JLINK_WriteReg(MSP, 0x20002000)  returns 0x00 (0000ms, 0549ms total)
T44C0 000:637 JLINK_WriteReg(PSP, 0x20002000)  returns 0x00 (0000ms, 0549ms total)
T44C0 000:637 JLINK_WriteReg(CFBP, 0x00000000)  returns 0x00 (0000ms, 0549ms total)
T44C0 000:637 JLINK_SetBPEx(Addr = 0x20000000, Type = 0xFFFFFFF2)  returns 0x00000003 (0000ms, 0549ms total)
T44C0 000:637 JLINK_Go() -- CPU_ReadMem(4 bytes @ 0xE0001000) (0004ms, 0553ms total)
T44C0 000:641 JLINK_IsHalted()  returns FALSE (0000ms, 0553ms total)
T44C0 000:702 JLINK_IsHalted()  returns FALSE (0000ms, 0553ms total)
T44C0 000:704 JLINK_IsHalted()  returns FALSE (0000ms, 0553ms total)
T44C0 000:706 JLINK_IsHalted()  returns FALSE (0000ms, 0553ms total)
T44C0 000:709 JLINK_IsHalted()  returns FALSE (0000ms, 0553ms total)
T44C0 000:711 JLINK_IsHalted()  returns FALSE (0000ms, 0553ms total)
T44C0 000:713 JLINK_IsHalted()  returns FALSE (0000ms, 0553ms total)
T44C0 000:715 JLINK_IsHalted()  returns FALSE (0000ms, 0553ms total)
T44C0 000:718 JLINK_IsHalted()  returns FALSE (0000ms, 0553ms total)
T44C0 000:720 JLINK_IsHalted()  returns FALSE (0000ms, 0553ms total)
T44C0 000:722 JLINK_IsHalted()  returns FALSE (0000ms, 0553ms total)
T44C0 000:725 JLINK_IsHalted() -- CPU_ReadMem(2 bytes @ 0x20000000)  returns TRUE (0003ms, 0556ms total)
T44C0 000:728 JLINK_ReadReg(R15 (PC))  returns 0x20000000 (0000ms, 0553ms total)
T44C0 000:728 JLINK_ClrBPEx(BPHandle = 0x00000003)  returns 0x00 (0000ms, 0553ms total)
T44C0 000:728 JLINK_ReadReg(R0)  returns 0x00000000 (0000ms, 0553ms total)
T44C0 000:729 JLINK_WriteReg(R0, 0x00027000)  returns 0x00 (0000ms, 0553ms total)
T44C0 000:729 JLINK_WriteReg(R1, 0x00001000)  returns 0x00 (0000ms, 0553ms total)
T44C0 000:729 JLINK_WriteReg(R2, 0x000000FF)  returns 0x00 (0000ms, 0553ms total)
T44C0 000:729 JLINK_WriteReg(R3, 0x00000000)  returns 0x00 (0000ms, 0553ms total)
T44C0 000:729 JLINK_WriteReg(R4, 0x00000000)  returns 0x00 (0000ms, 0553ms total)
T44C0 000:729 JLINK_WriteReg(R5, 0x00000000)  returns 0x00 (0000ms, 0553ms total)
T44C0 000:729 JLINK_WriteReg(R6, 0x00000000)  returns 0x00 (0000ms, 0553ms total)
T44C0 000:729 JLINK_WriteReg(R7, 0x00000000)  returns 0x00 (0000ms, 0553ms total)
T44C0 000:729 JLINK_WriteReg(R8, 0x00000000)  returns 0x00 (0000ms, 0553ms total)
T44C0 000:729 JLINK_WriteReg(R9, 0x200006E0)  returns 0x00 (0000ms, 0553ms total)
T44C0 000:729 JLINK_WriteReg(R10, 0x00000000)  returns 0x00 (0000ms, 0553ms total)
T44C0 000:729 JLINK_WriteReg(R11, 0x00000000)  returns 0x00 (0000ms, 0553ms total)
T44C0 000:729 JLINK_WriteReg(R12, 0x00000000)  returns 0x00 (0000ms, 0553ms total)
T44C0 000:729 JLINK_WriteReg(R13 (SP), 0x20002000)  returns 0x00 (0000ms, 0553ms total)
T44C0 000:729 JLINK_WriteReg(R14, 0x20000001)  returns 0x00 (0000ms, 0553ms total)
T44C0 000:729 JLINK_WriteReg(R15 (PC), 0x20000344)  returns 0x00 (0000ms, 0553ms total)
T44C0 000:729 JLINK_WriteReg(XPSR, 0x01000000)  returns 0x00 (0000ms, 0553ms total)
T44C0 000:729 JLINK_WriteReg(MSP, 0x20002000)  returns 0x00 (0000ms, 0553ms total)
T44C0 000:729 JLINK_WriteReg(PSP, 0x20002000)  returns 0x00 (0000ms, 0553ms total)
T44C0 000:729 JLINK_WriteReg(CFBP, 0x00000000)  returns 0x00 (0000ms, 0553ms total)
T44C0 000:729 JLINK_SetBPEx(Addr = 0x20000000, Type = 0xFFFFFFF2)  returns 0x00000004 (0000ms, 0553ms total)
T44C0 000:729 JLINK_Go() -- CPU_ReadMem(4 bytes @ 0xE0001000) (0003ms, 0556ms total)
T44C0 000:732 JLINK_IsHalted() -- CPU_ReadMem(2 bytes @ 0x20000000)  returns TRUE (0003ms, 0559ms total)
T44C0 000:735 JLINK_ReadReg(R15 (PC))  returns 0x20000000 (0000ms, 0556ms total)
T44C0 000:735 JLINK_ClrBPEx(BPHandle = 0x00000004)  returns 0x00 (0000ms, 0556ms total)
T44C0 000:735 JLINK_ReadReg(R0)  returns 0x00000001 (0000ms, 0556ms total)
T44C0 000:735 JLINK_WriteReg(R0, 0x00027000)  returns 0x00 (0000ms, 0556ms total)
T44C0 000:735 JLINK_WriteReg(R1, 0x00001000)  returns 0x00 (0000ms, 0556ms total)
T44C0 000:735 JLINK_WriteReg(R2, 0x000000FF)  returns 0x00 (0000ms, 0556ms total)
T44C0 000:735 JLINK_WriteReg(R3, 0x00000000)  returns 0x00 (0000ms, 0556ms total)
T44C0 000:735 JLINK_WriteReg(R4, 0x00000000)  returns 0x00 (0000ms, 0556ms total)
T44C0 000:735 JLINK_WriteReg(R5, 0x00000000)  returns 0x00 (0000ms, 0556ms total)
T44C0 000:735 JLINK_WriteReg(R6, 0x00000000)  returns 0x00 (0000ms, 0556ms total)
T44C0 000:735 JLINK_WriteReg(R7, 0x00000000)  returns 0x00 (0000ms, 0556ms total)
T44C0 000:735 JLINK_WriteReg(R8, 0x00000000)  returns 0x00 (0000ms, 0556ms total)
T44C0 000:735 JLINK_WriteReg(R9, 0x200006E0)  returns 0x00 (0000ms, 0556ms total)
T44C0 000:735 JLINK_WriteReg(R10, 0x00000000)  returns 0x00 (0000ms, 0556ms total)
T44C0 000:735 JLINK_WriteReg(R11, 0x00000000)  returns 0x00 (0000ms, 0556ms total)
T44C0 000:735 JLINK_WriteReg(R12, 0x00000000)  returns 0x00 (0000ms, 0556ms total)
T44C0 000:735 JLINK_WriteReg(R13 (SP), 0x20002000)  returns 0x00 (0000ms, 0556ms total)
T44C0 000:735 JLINK_WriteReg(R14, 0x20000001)  returns 0x00 (0000ms, 0556ms total)
T44C0 000:735 JLINK_WriteReg(R15 (PC), 0x20000188)  returns 0x00 (0000ms, 0556ms total)
T44C0 000:735 JLINK_WriteReg(XPSR, 0x01000000)  returns 0x00 (0000ms, 0556ms total)
T44C0 000:735 JLINK_WriteReg(MSP, 0x20002000)  returns 0x00 (0000ms, 0556ms total)
T44C0 000:735 JLINK_WriteReg(PSP, 0x20002000)  returns 0x00 (0001ms, 0557ms total)
T44C0 000:736 JLINK_WriteReg(CFBP, 0x00000000)  returns 0x00 (0000ms, 0557ms total)
T44C0 000:736 JLINK_SetBPEx(Addr = 0x20000000, Type = 0xFFFFFFF2)  returns 0x00000005 (0000ms, 0557ms total)
T44C0 000:736 JLINK_Go() -- CPU_ReadMem(4 bytes @ 0xE0001000) (0002ms, 0559ms total)
T44C0 000:738 JLINK_IsHalted()  returns FALSE (0001ms, 0560ms total)
T44C0 000:742 JLINK_IsHalted()  returns FALSE (0000ms, 0559ms total)
T44C0 000:744 JLINK_IsHalted()  returns FALSE (0000ms, 0559ms total)
T44C0 000:746 JLINK_IsHalted()  returns FALSE (0000ms, 0559ms total)
T44C0 000:751 JLINK_IsHalted()  returns FALSE (0000ms, 0559ms total)
T44C0 000:753 JLINK_IsHalted()  returns FALSE (0000ms, 0559ms total)
T44C0 000:757 JLINK_IsHalted()  returns FALSE (0000ms, 0559ms total)
T44C0 000:759 JLINK_IsHalted()  returns FALSE (0000ms, 0559ms total)
T44C0 000:761 JLINK_IsHalted()  returns FALSE (0000ms, 0559ms total)
T44C0 000:766 JLINK_IsHalted()  returns FALSE (0000ms, 0559ms total)
T44C0 000:768 JLINK_IsHalted()  returns FALSE (0000ms, 0559ms total)
T44C0 000:770 JLINK_IsHalted()  returns FALSE (0000ms, 0559ms total)
T44C0 000:773 JLINK_IsHalted()  returns FALSE (0000ms, 0559ms total)
T44C0 000:775 JLINK_IsHalted()  returns FALSE (0000ms, 0559ms total)
T44C0 000:777 JLINK_IsHalted()  returns FALSE (0000ms, 0559ms total)
T44C0 000:779 JLINK_IsHalted()  returns FALSE (0000ms, 0559ms total)
T44C0 000:782 JLINK_IsHalted()  returns FALSE (0000ms, 0559ms total)
T44C0 000:784 JLINK_IsHalted()  returns FALSE (0000ms, 0559ms total)
T44C0 000:786 JLINK_IsHalted()  returns FALSE (0000ms, 0559ms total)
T44C0 000:789 JLINK_IsHalted()  returns FALSE (0000ms, 0559ms total)
T44C0 000:791 JLINK_IsHalted()  returns FALSE (0000ms, 0559ms total)
T44C0 000:795 JLINK_IsHalted()  returns FALSE (0000ms, 0559ms total)
T44C0 000:798 JLINK_IsHalted()  returns FALSE (0000ms, 0559ms total)
T44C0 000:800 JLINK_IsHalted()  returns FALSE (0000ms, 0559ms total)
T44C0 000:802 JLINK_IsHalted()  returns FALSE (0000ms, 0559ms total)
T44C0 000:805 JLINK_IsHalted()  returns FALSE (0000ms, 0559ms total)
T44C0 000:807 JLINK_IsHalted()  returns FALSE (0000ms, 0559ms total)
T44C0 000:809 JLINK_IsHalted()  returns FALSE (0000ms, 0559ms total)
T44C0 000:814 JLINK_IsHalted()  returns FALSE (0000ms, 0559ms total)
T44C0 000:816 JLINK_IsHalted()  returns FALSE (0000ms, 0559ms total)
T44C0 000:818 JLINK_IsHalted()  returns FALSE (0001ms, 0560ms total)
T44C0 000:822 JLINK_IsHalted() -- CPU_ReadMem(2 bytes @ 0x20000000)  returns TRUE (0003ms, 0562ms total)
T44C0 000:826 JLINK_ReadReg(R15 (PC))  returns 0x20000000 (0000ms, 0559ms total)
T44C0 000:826 JLINK_ClrBPEx(BPHandle = 0x00000005)  returns 0x00 (0000ms, 0559ms total)
T44C0 000:826 JLINK_ReadReg(R0)  returns 0x00000000 (0000ms, 0559ms total)
T44C0 000:826 JLINK_WriteReg(R0, 0x00028000)  returns 0x00 (0000ms, 0559ms total)
T44C0 000:826 JLINK_WriteReg(R1, 0x00001000)  returns 0x00 (0000ms, 0559ms total)
T44C0 000:826 JLINK_WriteReg(R2, 0x000000FF)  returns 0x00 (0000ms, 0559ms total)
T44C0 000:826 JLINK_WriteReg(R3, 0x00000000)  returns 0x00 (0000ms, 0559ms total)
T44C0 000:827 JLINK_WriteReg(R4, 0x00000000)  returns 0x00 (0000ms, 0559ms total)
T44C0 000:827 JLINK_WriteReg(R5, 0x00000000)  returns 0x00 (0000ms, 0559ms total)
T44C0 000:827 JLINK_WriteReg(R6, 0x00000000)  returns 0x00 (0000ms, 0559ms total)
T44C0 000:827 JLINK_WriteReg(R7, 0x00000000)  returns 0x00 (0000ms, 0559ms total)
T44C0 000:827 JLINK_WriteReg(R8, 0x00000000)  returns 0x00 (0000ms, 0559ms total)
T44C0 000:827 JLINK_WriteReg(R9, 0x200006E0)  returns 0x00 (0000ms, 0559ms total)
T44C0 000:827 JLINK_WriteReg(R10, 0x00000000)  returns 0x00 (0000ms, 0559ms total)
T44C0 000:827 JLINK_WriteReg(R11, 0x00000000)  returns 0x00 (0000ms, 0559ms total)
T44C0 000:827 JLINK_WriteReg(R12, 0x00000000)  returns 0x00 (0000ms, 0559ms total)
T44C0 000:827 JLINK_WriteReg(R13 (SP), 0x20002000)  returns 0x00 (0000ms, 0559ms total)
T44C0 000:827 JLINK_WriteReg(R14, 0x20000001)  returns 0x00 (0000ms, 0559ms total)
T44C0 000:827 JLINK_WriteReg(R15 (PC), 0x20000344)  returns 0x00 (0000ms, 0559ms total)
T44C0 000:827 JLINK_WriteReg(XPSR, 0x01000000)  returns 0x00 (0000ms, 0559ms total)
T44C0 000:827 JLINK_WriteReg(MSP, 0x20002000)  returns 0x00 (0000ms, 0559ms total)
T44C0 000:827 JLINK_WriteReg(PSP, 0x20002000)  returns 0x00 (0000ms, 0559ms total)
T44C0 000:827 JLINK_WriteReg(CFBP, 0x00000000)  returns 0x00 (0000ms, 0559ms total)
T44C0 000:827 JLINK_SetBPEx(Addr = 0x20000000, Type = 0xFFFFFFF2)  returns 0x00000006 (0000ms, 0559ms total)
T44C0 000:827 JLINK_Go() -- CPU_ReadMem(4 bytes @ 0xE0001000) (0003ms, 0562ms total)
T44C0 000:830 JLINK_IsHalted() -- CPU_ReadMem(2 bytes @ 0x20000000)  returns TRUE (0003ms, 0565ms total)
T44C0 000:833 JLINK_ReadReg(R15 (PC))  returns 0x20000000 (0000ms, 0562ms total)
T44C0 000:833 JLINK_ClrBPEx(BPHandle = 0x00000006)  returns 0x00 (0000ms, 0562ms total)
T44C0 000:833 JLINK_ReadReg(R0)  returns 0x00000001 (0000ms, 0562ms total)
T44C0 000:833 JLINK_WriteReg(R0, 0x00028000)  returns 0x00 (0000ms, 0562ms total)
T44C0 000:833 JLINK_WriteReg(R1, 0x00001000)  returns 0x00 (0000ms, 0562ms total)
T44C0 000:833 JLINK_WriteReg(R2, 0x000000FF)  returns 0x00 (0000ms, 0562ms total)
T44C0 000:833 JLINK_WriteReg(R3, 0x00000000)  returns 0x00 (0000ms, 0562ms total)
T44C0 000:833 JLINK_WriteReg(R4, 0x00000000)  returns 0x00 (0000ms, 0562ms total)
T44C0 000:833 JLINK_WriteReg(R5, 0x00000000)  returns 0x00 (0000ms, 0562ms total)
T44C0 000:833 JLINK_WriteReg(R6, 0x00000000)  returns 0x00 (0000ms, 0562ms total)
T44C0 000:833 JLINK_WriteReg(R7, 0x00000000)  returns 0x00 (0000ms, 0562ms total)
T44C0 000:833 JLINK_WriteReg(R8, 0x00000000)  returns 0x00 (0000ms, 0562ms total)
T44C0 000:833 JLINK_WriteReg(R9, 0x200006E0)  returns 0x00 (0000ms, 0562ms total)
T44C0 000:833 JLINK_WriteReg(R10, 0x00000000)  returns 0x00 (0000ms, 0562ms total)
T44C0 000:833 JLINK_WriteReg(R11, 0x00000000)  returns 0x00 (0000ms, 0562ms total)
T44C0 000:833 JLINK_WriteReg(R12, 0x00000000)  returns 0x00 (0000ms, 0562ms total)
T44C0 000:833 JLINK_WriteReg(R13 (SP), 0x20002000)  returns 0x00 (0000ms, 0562ms total)
T44C0 000:833 JLINK_WriteReg(R14, 0x20000001)  returns 0x00 (0000ms, 0562ms total)
T44C0 000:833 JLINK_WriteReg(R15 (PC), 0x20000188)  returns 0x00 (0000ms, 0562ms total)
T44C0 000:833 JLINK_WriteReg(XPSR, 0x01000000)  returns 0x00 (0001ms, 0563ms total)
T44C0 000:834 JLINK_WriteReg(MSP, 0x20002000)  returns 0x00 (0000ms, 0563ms total)
T44C0 000:834 JLINK_WriteReg(PSP, 0x20002000)  returns 0x00 (0000ms, 0563ms total)
T44C0 000:834 JLINK_WriteReg(CFBP, 0x00000000)  returns 0x00 (0000ms, 0563ms total)
T44C0 000:834 JLINK_SetBPEx(Addr = 0x20000000, Type = 0xFFFFFFF2)  returns 0x00000007 (0000ms, 0563ms total)
T44C0 000:834 JLINK_Go() -- CPU_ReadMem(4 bytes @ 0xE0001000) (0002ms, 0565ms total)
T44C0 000:836 JLINK_IsHalted()  returns FALSE (0001ms, 0566ms total)
T44C0 000:842 JLINK_IsHalted()  returns FALSE (0000ms, 0565ms total)
T44C0 000:845 JLINK_IsHalted()  returns FALSE (0000ms, 0565ms total)
T44C0 000:847 JLINK_IsHalted()  returns FALSE (0000ms, 0565ms total)
T44C0 000:849 JLINK_IsHalted()  returns FALSE (0000ms, 0565ms total)
T44C0 000:851 JLINK_IsHalted()  returns FALSE (0000ms, 0565ms total)
T44C0 000:854 JLINK_IsHalted()  returns FALSE (0001ms, 0566ms total)
T44C0 000:856 JLINK_IsHalted()  returns FALSE (0001ms, 0566ms total)
T44C0 000:859 JLINK_IsHalted()  returns FALSE (0000ms, 0565ms total)
T44C0 000:864 JLINK_IsHalted()  returns FALSE (0000ms, 0565ms total)
T44C0 000:866 JLINK_IsHalted()  returns FALSE (0000ms, 0565ms total)
T44C0 000:869 JLINK_IsHalted()  returns FALSE (0000ms, 0565ms total)
T44C0 000:871 JLINK_IsHalted()  returns FALSE (0000ms, 0565ms total)
T44C0 000:874 JLINK_IsHalted()  returns FALSE (0000ms, 0565ms total)
T44C0 000:877 JLINK_IsHalted()  returns FALSE (0000ms, 0565ms total)
T44C0 000:879 JLINK_IsHalted()  returns FALSE (0000ms, 0565ms total)
T44C0 000:881 JLINK_IsHalted()  returns FALSE (0000ms, 0565ms total)
T44C0 000:883 JLINK_IsHalted()  returns FALSE (0000ms, 0565ms total)
T44C0 000:886 JLINK_IsHalted()  returns FALSE (0000ms, 0565ms total)
T44C0 000:888 JLINK_IsHalted()  returns FALSE (0000ms, 0565ms total)
T44C0 000:890 JLINK_IsHalted()  returns FALSE (0001ms, 0566ms total)
T44C0 000:894 JLINK_IsHalted()  returns FALSE (0000ms, 0565ms total)
T44C0 000:896 JLINK_IsHalted()  returns FALSE (0000ms, 0565ms total)
T44C0 000:898 JLINK_IsHalted()  returns FALSE (0000ms, 0565ms total)
T44C0 000:901 JLINK_IsHalted()  returns FALSE (0000ms, 0565ms total)
T44C0 000:910 JLINK_IsHalted()  returns FALSE (0000ms, 0565ms total)
T44C0 000:912 JLINK_IsHalted()  returns FALSE (0000ms, 0565ms total)
T44C0 000:915 JLINK_IsHalted()  returns FALSE (0001ms, 0566ms total)
T44C0 000:919 JLINK_IsHalted() -- CPU_ReadMem(2 bytes @ 0x20000000)  returns TRUE (0003ms, 0568ms total)
T44C0 000:922 JLINK_ReadReg(R15 (PC))  returns 0x20000000 (0000ms, 0565ms total)
T44C0 000:922 JLINK_ClrBPEx(BPHandle = 0x00000007)  returns 0x00 (0000ms, 0565ms total)
T44C0 000:922 JLINK_ReadReg(R0)  returns 0x00000000 (0000ms, 0565ms total)
T44C0 000:923 JLINK_WriteReg(R0, 0x00029000)  returns 0x00 (0000ms, 0565ms total)
T44C0 000:923 JLINK_WriteReg(R1, 0x00001000)  returns 0x00 (0000ms, 0565ms total)
T44C0 000:923 JLINK_WriteReg(R2, 0x000000FF)  returns 0x00 (0000ms, 0565ms total)
T44C0 000:923 JLINK_WriteReg(R3, 0x00000000)  returns 0x00 (0000ms, 0565ms total)
T44C0 000:923 JLINK_WriteReg(R4, 0x00000000)  returns 0x00 (0000ms, 0565ms total)
T44C0 000:923 JLINK_WriteReg(R5, 0x00000000)  returns 0x00 (0000ms, 0565ms total)
T44C0 000:923 JLINK_WriteReg(R6, 0x00000000)  returns 0x00 (0000ms, 0565ms total)
T44C0 000:923 JLINK_WriteReg(R7, 0x00000000)  returns 0x00 (0000ms, 0565ms total)
T44C0 000:923 JLINK_WriteReg(R8, 0x00000000)  returns 0x00 (0000ms, 0565ms total)
T44C0 000:923 JLINK_WriteReg(R9, 0x200006E0)  returns 0x00 (0000ms, 0565ms total)
T44C0 000:923 JLINK_WriteReg(R10, 0x00000000)  returns 0x00 (0000ms, 0565ms total)
T44C0 000:923 JLINK_WriteReg(R11, 0x00000000)  returns 0x00 (0000ms, 0565ms total)
T44C0 000:923 JLINK_WriteReg(R12, 0x00000000)  returns 0x00 (0000ms, 0565ms total)
T44C0 000:923 JLINK_WriteReg(R13 (SP), 0x20002000)  returns 0x00 (0000ms, 0565ms total)
T44C0 000:923 JLINK_WriteReg(R14, 0x20000001)  returns 0x00 (0000ms, 0565ms total)
T44C0 000:923 JLINK_WriteReg(R15 (PC), 0x20000344)  returns 0x00 (0000ms, 0565ms total)
T44C0 000:923 JLINK_WriteReg(XPSR, 0x01000000)  returns 0x00 (0000ms, 0565ms total)
T44C0 000:923 JLINK_WriteReg(MSP, 0x20002000)  returns 0x00 (0000ms, 0565ms total)
T44C0 000:923 JLINK_WriteReg(PSP, 0x20002000)  returns 0x00 (0000ms, 0565ms total)
T44C0 000:923 JLINK_WriteReg(CFBP, 0x00000000)  returns 0x00 (0000ms, 0565ms total)
T44C0 000:923 JLINK_SetBPEx(Addr = 0x20000000, Type = 0xFFFFFFF2)  returns 0x00000008 (0000ms, 0565ms total)
T44C0 000:923 JLINK_Go() -- CPU_ReadMem(4 bytes @ 0xE0001000) (0003ms, 0568ms total)
T44C0 000:926 JLINK_IsHalted() -- CPU_ReadMem(2 bytes @ 0x20000000)  returns TRUE (0003ms, 0571ms total)
T44C0 000:929 JLINK_ReadReg(R15 (PC))  returns 0x20000000 (0000ms, 0568ms total)
T44C0 000:929 JLINK_ClrBPEx(BPHandle = 0x00000008)  returns 0x00 (0000ms, 0568ms total)
T44C0 000:929 JLINK_ReadReg(R0)  returns 0x00000001 (0000ms, 0568ms total)
T44C0 000:929 JLINK_WriteReg(R0, 0x00029000)  returns 0x00 (0000ms, 0568ms total)
T44C0 000:929 JLINK_WriteReg(R1, 0x00001000)  returns 0x00 (0000ms, 0568ms total)
T44C0 000:929 JLINK_WriteReg(R2, 0x000000FF)  returns 0x00 (0000ms, 0568ms total)
T44C0 000:929 JLINK_WriteReg(R3, 0x00000000)  returns 0x00 (0000ms, 0568ms total)
T44C0 000:929 JLINK_WriteReg(R4, 0x00000000)  returns 0x00 (0000ms, 0568ms total)
T44C0 000:929 JLINK_WriteReg(R5, 0x00000000)  returns 0x00 (0000ms, 0568ms total)
T44C0 000:929 JLINK_WriteReg(R6, 0x00000000)  returns 0x00 (0000ms, 0568ms total)
T44C0 000:929 JLINK_WriteReg(R7, 0x00000000)  returns 0x00 (0000ms, 0568ms total)
T44C0 000:929 JLINK_WriteReg(R8, 0x00000000)  returns 0x00 (0000ms, 0568ms total)
T44C0 000:929 JLINK_WriteReg(R9, 0x200006E0)  returns 0x00 (0000ms, 0568ms total)
T44C0 000:929 JLINK_WriteReg(R10, 0x00000000)  returns 0x00 (0000ms, 0568ms total)
T44C0 000:929 JLINK_WriteReg(R11, 0x00000000)  returns 0x00 (0000ms, 0568ms total)
T44C0 000:929 JLINK_WriteReg(R12, 0x00000000)  returns 0x00 (0000ms, 0568ms total)
T44C0 000:929 JLINK_WriteReg(R13 (SP), 0x20002000)  returns 0x00 (0001ms, 0569ms total)
T44C0 000:930 JLINK_WriteReg(R14, 0x20000001)  returns 0x00 (0000ms, 0569ms total)
T44C0 000:930 JLINK_WriteReg(R15 (PC), 0x20000188)  returns 0x00 (0000ms, 0569ms total)
T44C0 000:930 JLINK_WriteReg(XPSR, 0x01000000)  returns 0x00 (0000ms, 0569ms total)
T44C0 000:930 JLINK_WriteReg(MSP, 0x20002000)  returns 0x00 (0000ms, 0569ms total)
T44C0 000:930 JLINK_WriteReg(PSP, 0x20002000)  returns 0x00 (0000ms, 0569ms total)
T44C0 000:930 JLINK_WriteReg(CFBP, 0x00000000)  returns 0x00 (0000ms, 0569ms total)
T44C0 000:930 JLINK_SetBPEx(Addr = 0x20000000, Type = 0xFFFFFFF2)  returns 0x00000009 (0000ms, 0569ms total)
T44C0 000:930 JLINK_Go() -- CPU_ReadMem(4 bytes @ 0xE0001000) (0003ms, 0572ms total)
T44C0 000:933 JLINK_IsHalted()  returns FALSE (0000ms, 0572ms total)
T44C0 000:937 JLINK_IsHalted()  returns FALSE (0000ms, 0572ms total)
T44C0 000:939 JLINK_IsHalted()  returns FALSE (0000ms, 0572ms total)
T44C0 000:942 JLINK_IsHalted()  returns FALSE (0000ms, 0572ms total)
T44C0 000:944 JLINK_IsHalted()  returns FALSE (0000ms, 0572ms total)
T44C0 000:946 JLINK_IsHalted()  returns FALSE (0000ms, 0572ms total)
T44C0 000:949 JLINK_IsHalted()  returns FALSE (0000ms, 0572ms total)
T44C0 000:951 JLINK_IsHalted()  returns FALSE (0001ms, 0573ms total)
T44C0 000:954 JLINK_IsHalted()  returns FALSE (0000ms, 0572ms total)
T44C0 000:959 JLINK_IsHalted()  returns FALSE (0000ms, 0572ms total)
T44C0 000:961 JLINK_IsHalted()  returns FALSE (0000ms, 0572ms total)
T44C0 000:963 JLINK_IsHalted()  returns FALSE (0000ms, 0572ms total)
T44C0 000:966 JLINK_IsHalted()  returns FALSE (0000ms, 0572ms total)
T44C0 000:968 JLINK_IsHalted()  returns FALSE (0000ms, 0572ms total)
T44C0 000:970 JLINK_IsHalted()  returns FALSE (0000ms, 0572ms total)
T44C0 000:973 JLINK_IsHalted()  returns FALSE (0000ms, 0572ms total)
T44C0 000:975 JLINK_IsHalted()  returns FALSE (0000ms, 0572ms total)
T44C0 000:977 JLINK_IsHalted()  returns FALSE (0000ms, 0572ms total)
T44C0 000:979 JLINK_IsHalted()  returns FALSE (0001ms, 0573ms total)
T44C0 000:981 JLINK_IsHalted()  returns FALSE (0001ms, 0573ms total)
T44C0 000:983 JLINK_IsHalted()  returns FALSE (0000ms, 0572ms total)
T44C0 000:985 JLINK_IsHalted()  returns FALSE (0000ms, 0572ms total)
T44C0 000:987 JLINK_IsHalted()  returns FALSE (0000ms, 0572ms total)
T44C0 000:989 JLINK_IsHalted()  returns FALSE (0000ms, 0572ms total)
T44C0 000:991 JLINK_IsHalted()  returns FALSE (0000ms, 0572ms total)
T44C0 000:993 JLINK_IsHalted()  returns FALSE (0000ms, 0572ms total)
T44C0 000:994 JLINK_IsHalted()  returns FALSE (0000ms, 0572ms total)
T44C0 000:996 JLINK_IsHalted()  returns FALSE (0000ms, 0572ms total)
T44C0 000:998 JLINK_IsHalted()  returns FALSE (0000ms, 0572ms total)
T44C0 001:002 JLINK_IsHalted()  returns FALSE (0000ms, 0572ms total)
T44C0 001:005 JLINK_IsHalted()  returns FALSE (0001ms, 0573ms total)
T44C0 001:008 JLINK_IsHalted()  returns FALSE (0001ms, 0573ms total)
T44C0 001:013 JLINK_IsHalted()  returns FALSE (0000ms, 0572ms total)
T44C0 001:015 JLINK_IsHalted() -- CPU_ReadMem(2 bytes @ 0x20000000)  returns TRUE (0002ms, 0574ms total)
T44C0 001:017 JLINK_ReadReg(R15 (PC))  returns 0x20000000 (0000ms, 0572ms total)
T44C0 001:017 JLINK_ClrBPEx(BPHandle = 0x00000009)  returns 0x00 (0000ms, 0572ms total)
T44C0 001:017 JLINK_ReadReg(R0)  returns 0x00000000 (0000ms, 0572ms total)
T44C0 001:018 JLINK_WriteReg(R0, 0x0002A000)  returns 0x00 (0000ms, 0572ms total)
T44C0 001:018 JLINK_WriteReg(R1, 0x00001000)  returns 0x00 (0000ms, 0572ms total)
T44C0 001:018 JLINK_WriteReg(R2, 0x000000FF)  returns 0x00 (0000ms, 0572ms total)
T44C0 001:018 JLINK_WriteReg(R3, 0x00000000)  returns 0x00 (0000ms, 0572ms total)
T44C0 001:018 JLINK_WriteReg(R4, 0x00000000)  returns 0x00 (0000ms, 0572ms total)
T44C0 001:018 JLINK_WriteReg(R5, 0x00000000)  returns 0x00 (0000ms, 0572ms total)
T44C0 001:018 JLINK_WriteReg(R6, 0x00000000)  returns 0x00 (0000ms, 0572ms total)
T44C0 001:018 JLINK_WriteReg(R7, 0x00000000)  returns 0x00 (0000ms, 0572ms total)
T44C0 001:018 JLINK_WriteReg(R8, 0x00000000)  returns 0x00 (0000ms, 0572ms total)
T44C0 001:018 JLINK_WriteReg(R9, 0x200006E0)  returns 0x00 (0000ms, 0572ms total)
T44C0 001:018 JLINK_WriteReg(R10, 0x00000000)  returns 0x00 (0000ms, 0572ms total)
T44C0 001:018 JLINK_WriteReg(R11, 0x00000000)  returns 0x00 (0000ms, 0572ms total)
T44C0 001:018 JLINK_WriteReg(R12, 0x00000000)  returns 0x00 (0001ms, 0573ms total)
T44C0 001:019 JLINK_WriteReg(R13 (SP), 0x20002000)  returns 0x00 (0000ms, 0573ms total)
T44C0 001:019 JLINK_WriteReg(R14, 0x20000001)  returns 0x00 (0000ms, 0573ms total)
T44C0 001:019 JLINK_WriteReg(R15 (PC), 0x20000344)  returns 0x00 (0000ms, 0573ms total)
T44C0 001:019 JLINK_WriteReg(XPSR, 0x01000000)  returns 0x00 (0000ms, 0573ms total)
T44C0 001:019 JLINK_WriteReg(MSP, 0x20002000)  returns 0x00 (0000ms, 0573ms total)
T44C0 001:019 JLINK_WriteReg(PSP, 0x20002000)  returns 0x00 (0000ms, 0573ms total)
T44C0 001:019 JLINK_WriteReg(CFBP, 0x00000000)  returns 0x00 (0000ms, 0573ms total)
T44C0 001:019 JLINK_SetBPEx(Addr = 0x20000000, Type = 0xFFFFFFF2)  returns 0x0000000A (0000ms, 0573ms total)
T44C0 001:019 JLINK_Go() -- CPU_ReadMem(4 bytes @ 0xE0001000) (0002ms, 0575ms total)
T44C0 001:021 JLINK_IsHalted() -- CPU_ReadMem(2 bytes @ 0x20000000)  returns TRUE (0003ms, 0578ms total)
T44C0 001:024 JLINK_ReadReg(R15 (PC))  returns 0x20000000 (0000ms, 0575ms total)
T44C0 001:024 JLINK_ClrBPEx(BPHandle = 0x0000000A)  returns 0x00 (0000ms, 0575ms total)
T44C0 001:024 JLINK_ReadReg(R0)  returns 0x00000001 (0000ms, 0575ms total)
T44C0 001:024 JLINK_WriteReg(R0, 0x0002A000)  returns 0x00 (0000ms, 0575ms total)
T44C0 001:024 JLINK_WriteReg(R1, 0x00001000)  returns 0x00 (0000ms, 0575ms total)
T44C0 001:024 JLINK_WriteReg(R2, 0x000000FF)  returns 0x00 (0000ms, 0575ms total)
T44C0 001:024 JLINK_WriteReg(R3, 0x00000000)  returns 0x00 (0000ms, 0575ms total)
T44C0 001:024 JLINK_WriteReg(R4, 0x00000000)  returns 0x00 (0000ms, 0575ms total)
T44C0 001:024 JLINK_WriteReg(R5, 0x00000000)  returns 0x00 (0000ms, 0575ms total)
T44C0 001:025 JLINK_WriteReg(R6, 0x00000000)  returns 0x00 (0000ms, 0576ms total)
T44C0 001:025 JLINK_WriteReg(R7, 0x00000000)  returns 0x00 (0000ms, 0576ms total)
T44C0 001:025 JLINK_WriteReg(R8, 0x00000000)  returns 0x00 (0000ms, 0576ms total)
T44C0 001:025 JLINK_WriteReg(R9, 0x200006E0)  returns 0x00 (0000ms, 0576ms total)
T44C0 001:025 JLINK_WriteReg(R10, 0x00000000)  returns 0x00 (0000ms, 0576ms total)
T44C0 001:025 JLINK_WriteReg(R11, 0x00000000)  returns 0x00 (0000ms, 0576ms total)
T44C0 001:025 JLINK_WriteReg(R12, 0x00000000)  returns 0x00 (0000ms, 0576ms total)
T44C0 001:025 JLINK_WriteReg(R13 (SP), 0x20002000)  returns 0x00 (0000ms, 0576ms total)
T44C0 001:025 JLINK_WriteReg(R14, 0x20000001)  returns 0x00 (0000ms, 0576ms total)
T44C0 001:025 JLINK_WriteReg(R15 (PC), 0x20000188)  returns 0x00 (0000ms, 0576ms total)
T44C0 001:025 JLINK_WriteReg(XPSR, 0x01000000)  returns 0x00 (0000ms, 0576ms total)
T44C0 001:025 JLINK_WriteReg(MSP, 0x20002000)  returns 0x00 (0000ms, 0576ms total)
T44C0 001:025 JLINK_WriteReg(PSP, 0x20002000)  returns 0x00 (0000ms, 0576ms total)
T44C0 001:025 JLINK_WriteReg(CFBP, 0x00000000)  returns 0x00 (0000ms, 0576ms total)
T44C0 001:025 JLINK_SetBPEx(Addr = 0x20000000, Type = 0xFFFFFFF2)  returns 0x0000000B (0000ms, 0576ms total)
T44C0 001:025 JLINK_Go() -- CPU_ReadMem(4 bytes @ 0xE0001000) (0003ms, 0579ms total)
T44C0 001:028 JLINK_IsHalted()  returns FALSE (0000ms, 0579ms total)
T44C0 001:031 JLINK_IsHalted()  returns FALSE (0000ms, 0579ms total)
T44C0 001:033 JLINK_IsHalted()  returns FALSE (0000ms, 0579ms total)
T44C0 001:036 JLINK_IsHalted()  returns FALSE (0001ms, 0580ms total)
T44C0 001:039 JLINK_IsHalted()  returns FALSE (0000ms, 0579ms total)
T44C0 001:042 JLINK_IsHalted()  returns FALSE (0000ms, 0579ms total)
T44C0 001:044 JLINK_IsHalted()  returns FALSE (0000ms, 0579ms total)
T44C0 001:045 JLINK_IsHalted()  returns FALSE (0000ms, 0579ms total)
T44C0 001:047 JLINK_IsHalted()  returns FALSE (0000ms, 0579ms total)
T44C0 001:049 JLINK_IsHalted()  returns FALSE (0000ms, 0579ms total)
T44C0 001:053 JLINK_IsHalted()  returns FALSE (0000ms, 0579ms total)
T44C0 001:055 JLINK_IsHalted()  returns FALSE (0000ms, 0579ms total)
T44C0 001:057 JLINK_IsHalted()  returns FALSE (0000ms, 0579ms total)
T44C0 001:062 JLINK_IsHalted()  returns FALSE (0000ms, 0579ms total)
T44C0 001:064 JLINK_IsHalted()  returns FALSE (0000ms, 0579ms total)
T44C0 001:066 JLINK_IsHalted()  returns FALSE (0000ms, 0579ms total)
T44C0 001:070 JLINK_IsHalted()  returns FALSE (0000ms, 0579ms total)
T44C0 001:072 JLINK_IsHalted()  returns FALSE (0000ms, 0579ms total)
T44C0 001:074 JLINK_IsHalted()  returns FALSE (0000ms, 0579ms total)
T44C0 001:077 JLINK_IsHalted()  returns FALSE (0000ms, 0579ms total)
T44C0 001:079 JLINK_IsHalted()  returns FALSE (0000ms, 0579ms total)
T44C0 001:081 JLINK_IsHalted()  returns FALSE (0000ms, 0579ms total)
T44C0 001:084 JLINK_IsHalted()  returns FALSE (0000ms, 0579ms total)
T44C0 001:086 JLINK_IsHalted()  returns FALSE (0000ms, 0579ms total)
T44C0 001:088 JLINK_IsHalted()  returns FALSE (0000ms, 0579ms total)
T44C0 001:090 JLINK_IsHalted()  returns FALSE (0000ms, 0579ms total)
T44C0 001:095 JLINK_IsHalted()  returns FALSE (0000ms, 0579ms total)
T44C0 001:097 JLINK_IsHalted()  returns FALSE (0000ms, 0579ms total)
T44C0 001:100 JLINK_IsHalted()  returns FALSE (0000ms, 0579ms total)
T44C0 001:102 JLINK_IsHalted()  returns FALSE (0000ms, 0579ms total)
T44C0 001:104 JLINK_IsHalted()  returns FALSE (0000ms, 0579ms total)
T44C0 001:106 JLINK_IsHalted()  returns FALSE (0001ms, 0580ms total)
T44C0 001:121 JLINK_IsHalted() -- CPU_ReadMem(2 bytes @ 0x20000000)  returns TRUE (0002ms, 0581ms total)
T44C0 001:123 JLINK_ReadReg(R15 (PC))  returns 0x20000000 (0000ms, 0579ms total)
T44C0 001:123 JLINK_ClrBPEx(BPHandle = 0x0000000B)  returns 0x00 (0000ms, 0579ms total)
T44C0 001:123 JLINK_ReadReg(R0)  returns 0x00000000 (0000ms, 0579ms total)
T44C0 001:124 JLINK_WriteReg(R0, 0x0002B000)  returns 0x00 (0000ms, 0579ms total)
T44C0 001:124 JLINK_WriteReg(R1, 0x00001000)  returns 0x00 (0000ms, 0579ms total)
T44C0 001:124 JLINK_WriteReg(R2, 0x000000FF)  returns 0x00 (0000ms, 0579ms total)
T44C0 001:124 JLINK_WriteReg(R3, 0x00000000)  returns 0x00 (0000ms, 0579ms total)
T44C0 001:124 JLINK_WriteReg(R4, 0x00000000)  returns 0x00 (0000ms, 0579ms total)
T44C0 001:124 JLINK_WriteReg(R5, 0x00000000)  returns 0x00 (0000ms, 0579ms total)
T44C0 001:124 JLINK_WriteReg(R6, 0x00000000)  returns 0x00 (0000ms, 0579ms total)
T44C0 001:124 JLINK_WriteReg(R7, 0x00000000)  returns 0x00 (0000ms, 0579ms total)
T44C0 001:124 JLINK_WriteReg(R8, 0x00000000)  returns 0x00 (0000ms, 0579ms total)
T44C0 001:124 JLINK_WriteReg(R9, 0x200006E0)  returns 0x00 (0000ms, 0579ms total)
T44C0 001:124 JLINK_WriteReg(R10, 0x00000000)  returns 0x00 (0000ms, 0579ms total)
T44C0 001:124 JLINK_WriteReg(R11, 0x00000000)  returns 0x00 (0000ms, 0579ms total)
T44C0 001:124 JLINK_WriteReg(R12, 0x00000000)  returns 0x00 (0000ms, 0579ms total)
T44C0 001:124 JLINK_WriteReg(R13 (SP), 0x20002000)  returns 0x00 (0000ms, 0579ms total)
T44C0 001:124 JLINK_WriteReg(R14, 0x20000001)  returns 0x00 (0000ms, 0579ms total)
T44C0 001:124 JLINK_WriteReg(R15 (PC), 0x20000344)  returns 0x00 (0000ms, 0579ms total)
T44C0 001:125 JLINK_WriteReg(XPSR, 0x01000000)  returns 0x00 (0000ms, 0580ms total)
T44C0 001:125 JLINK_WriteReg(MSP, 0x20002000)  returns 0x00 (0000ms, 0580ms total)
T44C0 001:125 JLINK_WriteReg(PSP, 0x20002000)  returns 0x00 (0000ms, 0580ms total)
T44C0 001:125 JLINK_WriteReg(CFBP, 0x00000000)  returns 0x00 (0000ms, 0580ms total)
T44C0 001:125 JLINK_SetBPEx(Addr = 0x20000000, Type = 0xFFFFFFF2)  returns 0x0000000C (0000ms, 0580ms total)
T44C0 001:125 JLINK_Go() -- CPU_ReadMem(4 bytes @ 0xE0001000) (0002ms, 0582ms total)
T44C0 001:127 JLINK_IsHalted() -- CPU_ReadMem(2 bytes @ 0x20000000)  returns TRUE (0003ms, 0585ms total)
T44C0 001:130 JLINK_ReadReg(R15 (PC))  returns 0x20000000 (0000ms, 0582ms total)
T44C0 001:130 JLINK_ClrBPEx(BPHandle = 0x0000000C)  returns 0x00 (0000ms, 0582ms total)
T44C0 001:130 JLINK_ReadReg(R0)  returns 0x00000001 (0000ms, 0582ms total)
T44C0 001:130 JLINK_WriteReg(R0, 0x0002B000)  returns 0x00 (0000ms, 0582ms total)
T44C0 001:130 JLINK_WriteReg(R1, 0x00001000)  returns 0x00 (0000ms, 0582ms total)
T44C0 001:130 JLINK_WriteReg(R2, 0x000000FF)  returns 0x00 (0000ms, 0582ms total)
T44C0 001:130 JLINK_WriteReg(R3, 0x00000000)  returns 0x00 (0000ms, 0582ms total)
T44C0 001:130 JLINK_WriteReg(R4, 0x00000000)  returns 0x00 (0000ms, 0582ms total)
T44C0 001:130 JLINK_WriteReg(R5, 0x00000000)  returns 0x00 (0000ms, 0582ms total)
T44C0 001:130 JLINK_WriteReg(R6, 0x00000000)  returns 0x00 (0000ms, 0582ms total)
T44C0 001:130 JLINK_WriteReg(R7, 0x00000000)  returns 0x00 (0000ms, 0582ms total)
T44C0 001:130 JLINK_WriteReg(R8, 0x00000000)  returns 0x00 (0000ms, 0582ms total)
T44C0 001:130 JLINK_WriteReg(R9, 0x200006E0)  returns 0x00 (0000ms, 0582ms total)
T44C0 001:130 JLINK_WriteReg(R10, 0x00000000)  returns 0x00 (0001ms, 0583ms total)
T44C0 001:131 JLINK_WriteReg(R11, 0x00000000)  returns 0x00 (0000ms, 0583ms total)
T44C0 001:131 JLINK_WriteReg(R12, 0x00000000)  returns 0x00 (0000ms, 0583ms total)
T44C0 001:131 JLINK_WriteReg(R13 (SP), 0x20002000)  returns 0x00 (0000ms, 0583ms total)
T44C0 001:131 JLINK_WriteReg(R14, 0x20000001)  returns 0x00 (0000ms, 0583ms total)
T44C0 001:131 JLINK_WriteReg(R15 (PC), 0x20000188)  returns 0x00 (0000ms, 0583ms total)
T44C0 001:131 JLINK_WriteReg(XPSR, 0x01000000)  returns 0x00 (0000ms, 0583ms total)
T44C0 001:131 JLINK_WriteReg(MSP, 0x20002000)  returns 0x00 (0000ms, 0583ms total)
T44C0 001:131 JLINK_WriteReg(PSP, 0x20002000)  returns 0x00 (0000ms, 0583ms total)
T44C0 001:131 JLINK_WriteReg(CFBP, 0x00000000)  returns 0x00 (0000ms, 0583ms total)
T44C0 001:131 JLINK_SetBPEx(Addr = 0x20000000, Type = 0xFFFFFFF2)  returns 0x0000000D (0000ms, 0583ms total)
T44C0 001:131 JLINK_Go() -- CPU_ReadMem(4 bytes @ 0xE0001000) (0003ms, 0586ms total)
T44C0 001:134 JLINK_IsHalted()  returns FALSE (0000ms, 0586ms total)
T44C0 001:138 JLINK_IsHalted()  returns FALSE (0000ms, 0586ms total)
T44C0 001:140 JLINK_IsHalted()  returns FALSE (0000ms, 0586ms total)
T44C0 001:142 JLINK_IsHalted()  returns FALSE (0000ms, 0586ms total)
T44C0 001:144 JLINK_IsHalted()  returns FALSE (0000ms, 0586ms total)
T44C0 001:146 JLINK_IsHalted()  returns FALSE (0000ms, 0586ms total)
T44C0 001:148 JLINK_IsHalted()  returns FALSE (0000ms, 0586ms total)
T44C0 001:150 JLINK_IsHalted()  returns FALSE (0000ms, 0586ms total)
T44C0 001:153 JLINK_IsHalted()  returns FALSE (0000ms, 0586ms total)
T44C0 001:155 JLINK_IsHalted()  returns FALSE (0000ms, 0586ms total)
T44C0 001:157 JLINK_IsHalted()  returns FALSE (0000ms, 0586ms total)
T44C0 001:159 JLINK_IsHalted()  returns FALSE (0001ms, 0587ms total)
T44C0 001:162 JLINK_IsHalted()  returns FALSE (0000ms, 0586ms total)
T44C0 001:164 JLINK_IsHalted()  returns FALSE (0001ms, 0587ms total)
T44C0 001:166 JLINK_IsHalted()  returns FALSE (0001ms, 0587ms total)
T44C0 001:168 JLINK_IsHalted()  returns FALSE (0000ms, 0586ms total)
T44C0 001:170 JLINK_IsHalted()  returns FALSE (0000ms, 0586ms total)
T44C0 001:172 JLINK_IsHalted()  returns FALSE (0000ms, 0586ms total)
T44C0 001:174 JLINK_IsHalted()  returns FALSE (0000ms, 0586ms total)
T44C0 001:176 JLINK_IsHalted()  returns FALSE (0000ms, 0586ms total)
T44C0 001:178 JLINK_IsHalted()  returns FALSE (0000ms, 0586ms total)
T44C0 001:180 JLINK_IsHalted()  returns FALSE (0000ms, 0586ms total)
T44C0 001:182 JLINK_IsHalted()  returns FALSE (0000ms, 0586ms total)
T44C0 001:184 JLINK_IsHalted()  returns FALSE (0000ms, 0586ms total)
T44C0 001:188 JLINK_IsHalted()  returns FALSE (0000ms, 0586ms total)
T44C0 001:190 JLINK_IsHalted()  returns FALSE (0000ms, 0586ms total)
T44C0 001:192 JLINK_IsHalted()  returns FALSE (0000ms, 0586ms total)
T44C0 001:194 JLINK_IsHalted()  returns FALSE (0000ms, 0586ms total)
T44C0 001:196 JLINK_IsHalted()  returns FALSE (0000ms, 0586ms total)
T44C0 001:198 JLINK_IsHalted()  returns FALSE (0000ms, 0586ms total)
T44C0 001:200 JLINK_IsHalted()  returns FALSE (0000ms, 0586ms total)
T44C0 001:202 JLINK_IsHalted()  returns FALSE (0000ms, 0586ms total)
T44C0 001:204 JLINK_IsHalted()  returns FALSE (0000ms, 0586ms total)
T44C0 001:206 JLINK_IsHalted()  returns FALSE (0000ms, 0586ms total)
T44C0 001:208 JLINK_IsHalted()  returns FALSE (0000ms, 0586ms total)
T44C0 001:210 JLINK_IsHalted()  returns FALSE (0000ms, 0586ms total)
T44C0 001:212 JLINK_IsHalted()  returns FALSE (0000ms, 0586ms total)
